
**** 06/05/22 22:56:10 ******* PSpice Lite (March 2016) ******* ID# 10813 ****

 Rectificador


 ****     CIRCUIT DESCRIPTION


******************************************************************************




VP 1 0 SIN (0 170 60HZ  0 0 0)
L1 2 0 722.4M
L2 3 0 5M

KTRANS L1 L2 0.9999

D1 3 4 D1N4004
D2 5 0 D1N4004
D3 5 3 D1N4004
D4 0 4 D1N4004
RP 1 2 5U
RL 4 5 1000

.lib diode.lib
.PROBE
.TRAN 35u 35m 0 35u
.END

**** 06/05/22 22:56:10 ******* PSpice Lite (March 2016) ******* ID# 10813 ****

 Rectificador


 ****     Diode MODEL PARAMETERS


******************************************************************************




               D1N4004         D1N4001         
          IS   14.110000E-09   14.110000E-09 
           N    1.984           1.984        
         IKF   94.81           94.81         
          BV  600              75            
         IBV   10.000000E-06   10.000000E-06 
          RS     .03389          .03389      
          TT    5.700000E-06    5.700000E-06 
         CJO   25.890000E-12   25.890000E-12 
          VJ     .3245           .3245       
           M     .44             .44         


**** 06/05/22 22:56:10 ******* PSpice Lite (March 2016) ******* ID# 10813 ****

 Rectificador


 ****     INITIAL TRANSIENT SOLUTION       TEMPERATURE =   27.000 DEG C


******************************************************************************



 NODE   VOLTAGE     NODE   VOLTAGE     NODE   VOLTAGE     NODE   VOLTAGE


(    1)    0.0000  (    2)    0.0000  (    3)    0.0000  (    4) 313.4E-21      

(    5) 358.7E-21  




    VOLTAGE SOURCE CURRENTS
    NAME         CURRENT

    VP           0.000E+00

    TOTAL POWER DISSIPATION   0.00E+00  WATTS



          JOB CONCLUDED

**** 06/05/22 22:56:10 ******* PSpice Lite (March 2016) ******* ID# 10813 ****

 Rectificador


 ****     JOB STATISTICS SUMMARY


******************************************************************************



  Total job time (using Solver 1)   =         .08

**** 06/05/22 22:56:10 ******* PSpice Lite (March 2016) ******* ID# 10813 ****

  


 ****     CIRCUIT DESCRIPTION


******************************************************************************




