
**** 10/14/23 07:04:20 ******* PSpice Lite (March 2016) ******* ID# 10813 ****

 ** Profile: "SCHEMATIC1-bias"  [ U:\EA1\Practica7\transistor-pspicefiles\schematic1\bias.sim ] 


 ****     CIRCUIT DESCRIPTION


******************************************************************************




** Creating circuit file "bias.cir" 
** WARNING: THIS AUTOMATICALLY GENERATED FILE MAY BE OVERWRITTEN BY SUBSEQUENT SIMULATIONS

*Libraries: 
* Profile Libraries :
* Local Libraries :
* From [PSPICE NETLIST] section of C:\Users\user\AppData\Roaming\SPB_Data\cdssetup\OrCAD_PSpice\17.2.0\PSpice.ini file:
.lib "nomd.lib" 

*Analysis directives: 
.OP
.OPTIONS ADVCONV
.PROBE64 V(alias(*)) I(alias(*)) W(alias(*)) D(alias(*)) NOISE(alias(*)) 
.INC "..\SCHEMATIC1.net" 



**** INCLUDING SCHEMATIC1.net ****
* source TRANSISTOR
V_Vth         N14468 0 4.92
R_Rth         N14468 N14490  48.380k TC=0,0 
R_Rc         N14749 N14884  680 TC=0,0 
R_Re         0 N14532  820 TC=0,0 
V_Vcc         N14884 0 12
X_Q2         N14749 N14490 N14532 awb2n2222a PARAMS:                           
+                  

**** RESUMING bias.cir ****
.END

**** 10/14/23 07:04:20 ******* PSpice Lite (March 2016) ******* ID# 10813 ****

 ** Profile: "SCHEMATIC1-bias"  [ U:\EA1\Practica7\transistor-pspicefiles\schematic1\bias.sim ] 


 ****     BJT MODEL PARAMETERS


******************************************************************************




               X_Q2.model4     
               NPN             
       LEVEL    1            
          IS  166.780000E-15 
          EG    1.11         
          BF  150            
          NF    1.074        
         VAF   78            
         IKF     .5          
         ISE    3.920000E-12 
          NE    1.776        
          BR    2.394        
          NR    1.074        
         VAR  500            
          NC    1            
         ISS    0            
          RB     .676        
         RBM     .676        
          RE     .1          
          RC     .654        
         CJE   22.250000E-12 
         VJE    1.333        
         MJE     .522        
         CJC    8.370000E-12 
         VJC    1.333        
         MJC     .518        
        XCJC     .5          
         CJS    0            
         VJS     .7          
         MJS     .5          
          TF  454.400000E-12 
         XTF   13.24         
         VTF    4.83         
         ITF     .2163       
          TR  117.500000E-09 
         XTB    2.34         
          KF    0            
          AF    1            
          CN    2.42         
           D     .87         


**** 10/14/23 07:04:20 ******* PSpice Lite (March 2016) ******* ID# 10813 ****

 ** Profile: "SCHEMATIC1-bias"  [ U:\EA1\Practica7\transistor-pspicefiles\schematic1\bias.sim ] 


 ****     SMALL SIGNAL BIAS SOLUTION       TEMPERATURE =   27.000 DEG C


******************************************************************************



 NODE   VOLTAGE     NODE   VOLTAGE     NODE   VOLTAGE     NODE   VOLTAGE


(N14468)    4.9200 (N14490)    3.5483 (N14532)    2.8896 (N14749)    9.6230     

(N14884)   12.0000 




    VOLTAGE SOURCE CURRENTS
    NAME         CURRENT

    V_Vth       -2.835E-05
    V_Vcc       -3.496E-03

    TOTAL POWER DISSIPATION   4.21E-02  WATTS


**** 10/14/23 07:04:20 ******* PSpice Lite (March 2016) ******* ID# 10813 ****

 ** Profile: "SCHEMATIC1-bias"  [ U:\EA1\Practica7\transistor-pspicefiles\schematic1\bias.sim ] 


 ****     OPERATING POINT INFORMATION      TEMPERATURE =   27.000 DEG C


******************************************************************************






**** BIPOLAR JUNCTION TRANSISTORS


NAME         X_Q2.Q2n2222a_0       
MODEL        X_Q2.model4           
IB           2.84E-05             
IC           3.50E-03             
VBE          6.59E-01             
VBC         -6.07E+00             
VCE          6.73E+00             
BETADC       1.23E+02             
GM           1.25E-01             
RPI          1.08E+03             
RX           6.76E-01             
RO           2.40E+04             
CBE          8.88E-11             
CBC          1.72E-12             
CJS          0.00E+00             
BETAAC       1.35E+02             
CBX/CBX2     1.72E-12             
FT/FT2       2.16E+08             



          JOB CONCLUDED

**** 10/14/23 07:04:20 ******* PSpice Lite (March 2016) ******* ID# 10813 ****

 ** Profile: "SCHEMATIC1-bias"  [ U:\EA1\Practica7\transistor-pspicefiles\schematic1\bias.sim ] 


 ****     JOB STATISTICS SUMMARY


******************************************************************************



  Total job time (using Solver 1)   =         .02
